
T2CA4 000:045 SEGGER J-Link V6.14b Log File (0001ms, 0037ms total)
T2CA4 000:045 DLL Compiled: Mar  9 2017 08:46:04 (0001ms, 0037ms total)
T2CA4 000:045 Logging started @ 2019-11-27 07:10 (0001ms, 0037ms total)
T2CA4 000:046 JLINK_SetWarnOutHandler(...) (0000ms, 0037ms total)
T2CA4 000:046 JLINK_OpenEx(...)
Firmware: J-Link V9 compiled Jun  1 2017 19:22:41
Hardware: V9.40
S/N: 59400001
Feature(s): GDB, RDI, FlashBP, FlashDL, JFlash, RDDIWEBSRV Webserver running on local port 19080 (0025ms, 0062ms total)
T2CA4 000:046   returns O.K. (0025ms, 0062ms total)
T2CA4 000:071 JLINK_SetErrorOutHandler(...) (0000ms, 0062ms total)
T2CA4 000:071 JLINK_ExecCommand("ProjectFile = "E:\核心板\STM32\开发板资料\STM32H743IIT6\05. TFT液晶显示\USER\JLinkSettings.ini"", ...). C:\Program Files (x86)\SEGGER\JLink_V614b\JLinkDevices.xml evaluated successfully.Device "STM32H743II" selected.  returns 0x00 (0120ms, 0182ms total)
T2CA4 000:193 JLINK_ExecCommand("Device = STM32H743IITx", ...). Device "STM32H743II" selected.  returns 0x00 (0005ms, 0187ms total)
T2CA4 000:198 JLINK_ExecCommand("DisableConnectionTimeout", ...).   returns 0x01 (0000ms, 0187ms total)
T2CA4 000:199 JLINK_GetHardwareVersion()  returns 0x16F30 (0000ms, 0187ms total)
T2CA4 000:199 JLINK_GetDLLVersion()  returns 61402 (0000ms, 0187ms total)
T2CA4 000:199 JLINK_GetFirmwareString(...) (0000ms, 0187ms total)
T2CA4 000:205 JLINK_GetDLLVersion()  returns 61402 (0000ms, 0187ms total)
T2CA4 000:205 JLINK_GetCompileDateTime() (0000ms, 0187ms total)
T2CA4 000:207 JLINK_GetFirmwareString(...) (0000ms, 0187ms total)
T2CA4 000:210 JLINK_GetHardwareVersion()  returns 0x16F30 (0000ms, 0187ms total)
T2CA4 000:218 JLINK_TIF_Select(JLINKARM_TIF_SWD)  returns 0x00 (0004ms, 0191ms total)
T2CA4 000:222 JLINK_SetSpeed(5000) (0001ms, 0192ms total)
T2CA4 000:223 JLINK_GetId() >0x108 TIF>Found SWD-DP with ID 0x6BA02477 >0x0D TIF> >0x28 TIF> >0x0D TIF> >0x28 TIF> >0x0D TIF> >0x28 TIF> >0x0D TIF> >0x28 TIF> >0x0D TIF> >0x21 TIF> >0x0D TIF> >0x28 TIF> >0x0D TIF> >0x28 TIF> >0x0D TIF> >0x21 TIF> >0x0D TIF> >0x21 TIF> >0x0D TIF> >0x21 TIF>AP-IDR: 0x84770001, Type: AHB-APAHB-AP ROM: 0xE00FE000 (Base addr. of first ROM table) >0x0D TIF> >0x28 TIF> >0x0D TIF> >0x28 TIF> >0x0D TIF> >0x28 TIF> >0x0D TIF> >0x21 TIF> >0x0D TIF> >0x21 TIF> >0x0D TIF> >0x28 TIF>
 >0x0D TIF> >0x21 TIF> >0x0D TIF> >0x21 TIF>Found Cortex-M7 r1p1, Little endian. -- CPU_ReadMem(4 bytes @ 0xE000EDF0) -- CPU_WriteMem(4 bytes @ 0xE000EDF0) -- CPU_ReadMem(4 bytes @ 0xE0002000)FPUnit: 8 code (BP) slots and 0 literal slots -- CPU_ReadMem(4 bytes @ 0xE000EDFC) -- CPU_WriteMem(4 bytes @ 0xE000EDFC) -- CPU_ReadMem(4 bytes @ 0xE0001000) -- CPU_WriteMem(4 bytes @ 0xE0001000) -- CPU_ReadMem(4 bytes @ 0xE000ED88) -- CPU_WriteMem(4 bytes @ 0xE000ED88) -- CPU_ReadMem(4 bytes @ 0xE000ED88)
 -- CPU_WriteMem(4 bytes @ 0xE000ED88)CoreSight components:ROMTbl 0 @ E00FE000 -- CPU_ReadMem(16 bytes @ 0xE00FE000) -- CPU_ReadMem(16 bytes @ 0xE00FFFF0) -- CPU_ReadMem(16 bytes @ 0xE00FFFE0)ROMTbl 0 [0]: 00001000, CID: B105100D, PID: 000BB4C7 ROM TableROMTbl 1 @ E00FF000 -- CPU_ReadMem(16 bytes @ 0xE00FF000) -- CPU_ReadMem(16 bytes @ 0xE000EFF0) -- CPU_ReadMem(16 bytes @ 0xE000EFE0)ROMTbl 1 [0]: FFF0F000, CID: B105E00D, PID: 000BB00C SCS -- CPU_ReadMem(16 bytes @ 0xE0001FF0)
 -- CPU_ReadMem(16 bytes @ 0xE0001FE0)ROMTbl 1 [1]: FFF02000, CID: B105E00D, PID: 000BB002 DWT -- CPU_ReadMem(16 bytes @ 0xE0002FF0) -- CPU_ReadMem(16 bytes @ 0xE0002FE0)ROMTbl 1 [2]: FFF03000, CID: B105E00D, PID: 000BB00E FPB -- CPU_ReadMem(16 bytes @ 0xE0000FF0) -- CPU_ReadMem(16 bytes @ 0xE0000FE0)ROMTbl 1 [3]: FFF01000, CID: B105E00D, PID: 000BB001 ITM -- CPU_ReadMem(16 bytes @ 0xE00FF010) -- CPU_ReadMem(16 bytes @ 0xE0041FF0) -- CPU_ReadMem(16 bytes @ 0xE0041FE0)
ROMTbl 0 [1]: FFF43000, CID: B105900D, PID: 001BB975 ETM-M7 -- CPU_ReadMem(16 bytes @ 0xE0043FF0) -- CPU_ReadMem(16 bytes @ 0xE0043FE0)ROMTbl 0 [2]: FFF45000, CID: B105900D, PID: 004BB906 ECT / CTI -- CPU_ReadMem(16 bytes @ 0xE00FE010) -- CPU_ReadMem(4 bytes @ 0xE000ED78)Cache: Separate I- and D-cache. (0113ms, 0305ms total)
T2CA4 000:223  -- CPU_WriteMem(4 bytes @ 0xE000ED84) -- CPU_ReadMem(4 bytes @ 0xE000ED80)I-Cache L1: 16 KB, 256 Sets, 32 Bytes/Line, 2-Way -- CPU_WriteMem(4 bytes @ 0xE000ED84) -- CPU_ReadMem(4 bytes @ 0xE000ED80)D-Cache L1: 16 KB, 128 Sets, 32 Bytes/Line, 4-Way >0x0D TIF> >0x21 TIF>  returns 0x6BA02477 (0124ms, 0316ms total)
T2CA4 000:347 JLINK_GetDLLVersion()  returns 61402 (0000ms, 0316ms total)
T2CA4 000:347 JLINK_CORE_GetFound()  returns 0xE0100FF (0000ms, 0316ms total)
T2CA4 000:347 JLINK_GetDebugInfo(0x100 = JLINKARM_ROM_TABLE_ADDR_INDEX) -- Value=0xE00FE000  returns 0x00 (0000ms, 0316ms total)
T2CA4 000:350 JLINK_ReadMem (0xE00FE000, 0x0020 Bytes, ...) -- CPU is running -- CPU_ReadMem(32 bytes @ 0xE00FE000) - Data: 03 10 00 00 03 30 F4 FF 03 50 F4 FF 02 20 F0 1F ...  returns 0x00 (0001ms, 0317ms total)
T2CA4 000:351 JLINK_ReadMem (0xE00FFFF0, 0x0010 Bytes, ...) -- CPU is running -- CPU_ReadMem(16 bytes @ 0xE00FFFF0) - Data: 0D 00 00 00 10 00 00 00 05 00 00 00 B1 00 00 00  returns 0x00 (0001ms, 0318ms total)
T2CA4 000:352 JLINK_ReadMem (0xE00FFFD0, 0x0020 Bytes, ...) -- CPU is running -- CPU_ReadMem(32 bytes @ 0xE00FFFD0) - Data: 04 00 00 00 00 00 00 00 00 00 00 00 00 00 00 00 ...  returns 0x00 (0001ms, 0319ms total)
T2CA4 000:353 JLINK_ReadMem (0xE00FF000, 0x0020 Bytes, ...) -- CPU is running -- CPU_ReadMem(32 bytes @ 0xE00FF000) - Data: 03 F0 F0 FF 03 20 F0 FF 03 30 F0 FF 03 10 F0 FF ...  returns 0x00 (0001ms, 0320ms total)
T2CA4 000:354 JLINK_ReadMem (0xE000EFF0, 0x0010 Bytes, ...) -- CPU is running -- CPU_ReadMem(16 bytes @ 0xE000EFF0) - Data: 0D 00 00 00 E0 00 00 00 05 00 00 00 B1 00 00 00  returns 0x00 (0001ms, 0321ms total)
T2CA4 000:355 JLINK_ReadMem (0xE000EFD0, 0x0020 Bytes, ...) -- CPU is running -- CPU_ReadMem(32 bytes @ 0xE000EFD0) - Data: 04 00 00 00 00 00 00 00 00 00 00 00 00 00 00 00 ...  returns 0x00 (0001ms, 0322ms total)
T2CA4 000:356 JLINK_ReadMem (0xE0001FF0, 0x0010 Bytes, ...) -- CPU is running -- CPU_ReadMem(16 bytes @ 0xE0001FF0) - Data: 0D 00 00 00 E0 00 00 00 05 00 00 00 B1 00 00 00  returns 0x00 (0001ms, 0323ms total)
T2CA4 000:357 JLINK_ReadMem (0xE0001FD0, 0x0020 Bytes, ...) -- CPU is running -- CPU_ReadMem(32 bytes @ 0xE0001FD0) - Data: 04 00 00 00 00 00 00 00 00 00 00 00 00 00 00 00 ...  returns 0x00 (0001ms, 0324ms total)
T2CA4 000:358 JLINK_ReadMem (0xE0002FF0, 0x0010 Bytes, ...) -- CPU is running -- CPU_ReadMem(16 bytes @ 0xE0002FF0) - Data: 0D 00 00 00 E0 00 00 00 05 00 00 00 B1 00 00 00  returns 0x00 (0001ms, 0325ms total)
T2CA4 000:359 JLINK_ReadMem (0xE0002FD0, 0x0020 Bytes, ...) -- CPU is running -- CPU_ReadMem(32 bytes @ 0xE0002FD0) - Data: 04 00 00 00 00 00 00 00 00 00 00 00 00 00 00 00 ...  returns 0x00 (0001ms, 0326ms total)
T2CA4 000:360 JLINK_ReadMem (0xE0000FF0, 0x0010 Bytes, ...) -- CPU is running -- CPU_ReadMem(16 bytes @ 0xE0000FF0) - Data: 0D 00 00 00 E0 00 00 00 05 00 00 00 B1 00 00 00  returns 0x00 (0001ms, 0327ms total)
T2CA4 000:361 JLINK_ReadMem (0xE0000FD0, 0x0020 Bytes, ...) -- CPU is running -- CPU_ReadMem(32 bytes @ 0xE0000FD0) - Data: 04 00 00 00 00 00 00 00 00 00 00 00 00 00 00 00 ...  returns 0x00 (0001ms, 0328ms total)
T2CA4 000:362 JLINK_ReadMem (0xE0041FF0, 0x0010 Bytes, ...) -- CPU is running -- CPU_ReadMem(16 bytes @ 0xE0041FF0) - Data: 0D 00 00 00 90 00 00 00 05 00 00 00 B1 00 00 00  returns 0x00 (0001ms, 0329ms total)
T2CA4 000:363 JLINK_ReadMem (0xE0041FD0, 0x0020 Bytes, ...) -- CPU is running -- CPU_ReadMem(32 bytes @ 0xE0041FD0) - Data: 04 00 00 00 00 00 00 00 00 00 00 00 00 00 00 00 ...  returns 0x00 (0001ms, 0330ms total)
T2CA4 000:364 JLINK_ReadMem (0xE0043FF0, 0x0010 Bytes, ...) -- CPU is running -- CPU_ReadMem(16 bytes @ 0xE0043FF0) - Data: 0D 00 00 00 90 00 00 00 05 00 00 00 B1 00 00 00  returns 0x00 (0001ms, 0331ms total)
T2CA4 000:365 JLINK_ReadMem (0xE0043FD0, 0x0020 Bytes, ...) -- CPU is running -- CPU_ReadMem(32 bytes @ 0xE0043FD0) - Data: 04 00 00 00 00 00 00 00 00 00 00 00 00 00 00 00 ...  returns 0x00 (0001ms, 0332ms total)
T2CA4 000:366 JLINK_ReadMemU32(0xE000ED00, 0x0001 Items, ...) -- CPU is running -- CPU_ReadMem(4 bytes @ 0xE000ED00) - Data: 71 C2 1F 41  returns 0x01 (0001ms, 0333ms total)
T2CA4 000:367 JLINK_ReadMemU32(0xE000EDF0, 0x0001 Items, ...) -- CPU is running -- CPU_ReadMem(4 bytes @ 0xE000EDF0) - Data: 01 00 09 00  returns 0x01 (0001ms, 0334ms total)
T2CA4 000:368 JLINK_SetResetType(JLINKARM_CM3_RESET_TYPE_NORMAL)  returns JLINKARM_CM3_RESET_TYPE_NORMAL (0000ms, 0334ms total)
T2CA4 000:368 JLINK_Reset() -- CPU is running -- CPU_WriteMem(4 bytes @ 0xE000EDF0) -- CPU is running -- CPU_WriteMem(4 bytes @ 0xE000EDFC) >0x35 TIF> -- CPU is running -- CPU_WriteMem(4 bytes @ 0xE000ED0C) >0x0D TIF> >0x28 TIF> -- CPU is running -- CPU_ReadMem(4 bytes @ 0xE000EDF0) -- CPU is running -- CPU_ReadMem(4 bytes @ 0xE000EDF0) -- CPU is running -- CPU_WriteMem(4 bytes @ 0xE000EDF0) -- CPU is running -- CPU_WriteMem(4 bytes @ 0xE000EDFC) -- CPU is running -- CPU_ReadMem(4 bytes @ 0xE000EDF0)
 -- CPU_WriteMem(4 bytes @ 0xE0002000) -- CPU_ReadMem(4 bytes @ 0xE000EDFC) -- CPU_ReadMem(4 bytes @ 0xE0001000) (0073ms, 0407ms total)
T2CA4 000:441 JLINK_Halt()  returns 0x00 (0000ms, 0407ms total)
T2CA4 000:441 JLINK_IsHalted()  returns TRUE (0000ms, 0407ms total)
T2CA4 000:441 JLINK_ReadMemU32(0xE000EDF0, 0x0001 Items, ...) -- CPU_ReadMem(4 bytes @ 0xE000EDF0) - Data: 03 00 03 00  returns 0x01 (0001ms, 0408ms total)
T2CA4 000:442 JLINK_WriteU32(0xE000EDF0, 0xA05F0003) -- CPU_WriteMem(4 bytes @ 0xE000EDF0)  returns 0x00 (0001ms, 0409ms total)
T2CA4 000:443 JLINK_WriteU32(0xE000EDFC, 0x01000000) -- CPU_WriteMem(4 bytes @ 0xE000EDFC)  returns 0x00 (0001ms, 0410ms total)
T2CA4 000:452 JLINK_GetHWStatus(...)  returns 0x00 (0001ms, 0411ms total)
T2CA4 000:459 JLINK_GetNumBPUnits(Type = 0xFFFFFF00)  returns 0x08 (0000ms, 0411ms total)
T2CA4 000:459 JLINK_GetNumBPUnits(Type = 0xF0)  returns 0x2000 (0000ms, 0411ms total)
T2CA4 000:459 JLINK_GetNumWPUnits()  returns 0x04 (0000ms, 0411ms total)
T2CA4 000:464 JLINK_GetSpeed()  returns 0xFA0 (0000ms, 0411ms total)
T2CA4 000:467 JLINK_ReadMemU32(0xE000E004, 0x0001 Items, ...) -- CPU_ReadMem(4 bytes @ 0xE000E004) - Data: 04 00 00 00  returns 0x01 (0002ms, 0413ms total)
T2CA4 000:469 JLINK_ReadMemU32(0xE000E004, 0x0001 Items, ...) -- CPU_ReadMem(4 bytes @ 0xE000E004) - Data: 04 00 00 00  returns 0x01 (0001ms, 0414ms total)
T2CA4 000:470 JLINK_WriteMem(0xE0001000, 0x001C Bytes, ...) - Data: 01 00 00 00 00 00 00 00 00 00 00 00 00 00 00 00 ... -- CPU_WriteMem(28 bytes @ 0xE0001000)  returns 0x1C (0001ms, 0415ms total)
T2CA4 000:471 JLINK_ReadMem (0xE0001000, 0x001C Bytes, ...) -- CPU_ReadMem(28 bytes @ 0xE0001000) - Data: 01 00 00 40 00 00 00 00 00 00 00 00 00 00 00 00 ...  returns 0x00 (0001ms, 0416ms total)
T2CA4 000:472 JLINK_Halt()  returns 0x00 (0000ms, 0416ms total)
T2CA4 000:472 JLINK_IsHalted()  returns TRUE (0000ms, 0416ms total)
T2CA4 000:474 JLINK_WriteMem(0x20000000, 0x0418 Bytes, ...) - Data: 00 BE 0A E0 0D 78 2D 06 68 40 08 24 40 00 00 D3 ... -- CPU_WriteMem(1048 bytes @ 0x20000000)  returns 0x418 (0004ms, 0420ms total)
T2CA4 000:478 JLINK_WriteReg(R0, 0x08000000)  returns 0x00 (0000ms, 0420ms total)
T2CA4 000:478 JLINK_WriteReg(R1, 0x00B71B00)  returns 0x00 (0000ms, 0420ms total)
T2CA4 000:478 JLINK_WriteReg(R2, 0x00000001)  returns 0x00 (0000ms, 0420ms total)
T2CA4 000:478 JLINK_WriteReg(R3, 0x00000000)  returns 0x00 (0000ms, 0420ms total)
T2CA4 000:478 JLINK_WriteReg(R4, 0x00000000)  returns 0x00 (0000ms, 0420ms total)
T2CA4 000:479 JLINK_WriteReg(R5, 0x00000000)  returns 0x00 (0000ms, 0421ms total)
T2CA4 000:479 JLINK_WriteReg(R6, 0x00000000)  returns 0x00 (0000ms, 0421ms total)
T2CA4 000:479 JLINK_WriteReg(R7, 0x00000000)  returns 0x00 (0000ms, 0421ms total)
T2CA4 000:479 JLINK_WriteReg(R8, 0x00000000)  returns 0x00 (0000ms, 0421ms total)
T2CA4 000:479 JLINK_WriteReg(R9, 0x20000414)  returns 0x00 (0000ms, 0421ms total)
T2CA4 000:479 JLINK_WriteReg(R10, 0x00000000)  returns 0x00 (0000ms, 0421ms total)
T2CA4 000:479 JLINK_WriteReg(R11, 0x00000000)  returns 0x00 (0000ms, 0421ms total)
T2CA4 000:479 JLINK_WriteReg(R12, 0x00000000)  returns 0x00 (0000ms, 0421ms total)
T2CA4 000:479 JLINK_WriteReg(R13 (SP), 0x20001000)  returns 0x00 (0000ms, 0421ms total)
T2CA4 000:479 JLINK_WriteReg(R14, 0x20000001)  returns 0x00 (0000ms, 0421ms total)
T2CA4 000:479 JLINK_WriteReg(R15 (PC), 0x2000003E)  returns 0x00 (0000ms, 0421ms total)
T2CA4 000:479 JLINK_WriteReg(XPSR, 0x01000000)  returns 0x00 (0000ms, 0421ms total)
T2CA4 000:479 JLINK_WriteReg(MSP, 0x20001000)  returns 0x00 (0000ms, 0421ms total)
T2CA4 000:479 JLINK_WriteReg(PSP, 0x20001000)  returns 0x00 (0000ms, 0421ms total)
T2CA4 000:479 JLINK_WriteReg(CFBP, 0x00000000)  returns 0x00 (0000ms, 0421ms total)
T2CA4 000:479 JLINK_SetBPEx(Addr = 0x20000000, Type = 0xFFFFFFF2)  returns 0x00000001 (0000ms, 0421ms total)
T2CA4 000:479 JLINK_Go() -- CPU_WriteMem(4 bytes @ 0xE0002000) -- CPU_ReadMem(4 bytes @ 0xE0001000) -- CPU_WriteMem(4 bytes @ 0xE0002008) -- CPU_WriteMem(4 bytes @ 0xE000200C) -- CPU_WriteMem(4 bytes @ 0xE0002010) -- CPU_WriteMem(4 bytes @ 0xE0002014) -- CPU_WriteMem(4 bytes @ 0xE0002018) -- CPU_WriteMem(4 bytes @ 0xE000201C) -- CPU_WriteMem(4 bytes @ 0xE0002020) -- CPU_WriteMem(4 bytes @ 0xE0002024) -- CPU_WriteMem(4 bytes @ 0xE0001004) (0006ms, 0427ms total)
T2CA4 000:486 JLINK_IsHalted()  returns TRUE (0002ms, 0430ms total)
T2CA4 000:488 JLINK_ReadReg(R15 (PC))  returns 0x20000000 (0000ms, 0428ms total)
T2CA4 000:489 JLINK_ClrBPEx(BPHandle = 0x00000001)  returns 0x00 (0000ms, 0429ms total)
T2CA4 000:489 JLINK_ReadReg(R0)  returns 0x00000000 (0000ms, 0429ms total)
T2CA4 000:489 JLINK_WriteReg(R0, 0x08000000)  returns 0x00 (0000ms, 0429ms total)
T2CA4 000:489 JLINK_WriteReg(R1, 0x00020000)  returns 0x00 (0000ms, 0429ms total)
T2CA4 000:489 JLINK_WriteReg(R2, 0x000000FF)  returns 0x00 (0000ms, 0429ms total)
T2CA4 000:489 JLINK_WriteReg(R3, 0x00000000)  returns 0x00 (0000ms, 0429ms total)
T2CA4 000:489 JLINK_WriteReg(R4, 0x00000000)  returns 0x00 (0000ms, 0429ms total)
T2CA4 000:489 JLINK_WriteReg(R5, 0x00000000)  returns 0x00 (0000ms, 0429ms total)
T2CA4 000:489 JLINK_WriteReg(R6, 0x00000000)  returns 0x00 (0000ms, 0429ms total)
T2CA4 000:489 JLINK_WriteReg(R7, 0x00000000)  returns 0x00 (0000ms, 0429ms total)
T2CA4 000:489 JLINK_WriteReg(R8, 0x00000000)  returns 0x00 (0000ms, 0429ms total)
T2CA4 000:489 JLINK_WriteReg(R9, 0x20000414)  returns 0x00 (0000ms, 0429ms total)
T2CA4 000:489 JLINK_WriteReg(R10, 0x00000000)  returns 0x00 (0000ms, 0429ms total)
T2CA4 000:489 JLINK_WriteReg(R11, 0x00000000)  returns 0x00 (0000ms, 0429ms total)
T2CA4 000:489 JLINK_WriteReg(R12, 0x00000000)  returns 0x00 (0000ms, 0429ms total)
T2CA4 000:489 JLINK_WriteReg(R13 (SP), 0x20001000)  returns 0x00 (0000ms, 0429ms total)
T2CA4 000:489 JLINK_WriteReg(R14, 0x20000001)  returns 0x00 (0000ms, 0429ms total)
T2CA4 000:489 JLINK_WriteReg(R15 (PC), 0x20000020)  returns 0x00 (0000ms, 0429ms total)
T2CA4 000:489 JLINK_WriteReg(XPSR, 0x01000000)  returns 0x00 (0000ms, 0429ms total)
T2CA4 000:489 JLINK_WriteReg(MSP, 0x20001000)  returns 0x00 (0000ms, 0429ms total)
T2CA4 000:489 JLINK_WriteReg(PSP, 0x20001000)  returns 0x00 (0000ms, 0429ms total)
T2CA4 000:489 JLINK_WriteReg(CFBP, 0x00000000)  returns 0x00 (0000ms, 0429ms total)
T2CA4 000:489 JLINK_SetBPEx(Addr = 0x20000000, Type = 0xFFFFFFF2)  returns 0x00000002 (0000ms, 0429ms total)
T2CA4 000:489 JLINK_Go() -- CPU_WriteMem(4 bytes @ 0xE0002000) -- CPU_ReadMem(4 bytes @ 0xE0001000) (0004ms, 0433ms total)
T2CA4 000:494 JLINK_IsHalted()  returns FALSE (0000ms, 0433ms total)
T2CA4 000:513 JLINK_IsHalted()  returns TRUE (0003ms, 0436ms total)
T2CA4 000:516 JLINK_ReadReg(R15 (PC))  returns 0x20000000 (0000ms, 0433ms total)
T2CA4 000:516 JLINK_ClrBPEx(BPHandle = 0x00000002)  returns 0x00 (0000ms, 0433ms total)
T2CA4 000:516 JLINK_ReadReg(R0)  returns 0x00000000 (0000ms, 0433ms total)
T2CA4 000:516 JLINK_WriteReg(R0, 0x08100000)  returns 0x00 (0000ms, 0433ms total)
T2CA4 000:516 JLINK_WriteReg(R1, 0x00020000)  returns 0x00 (0000ms, 0433ms total)
T2CA4 000:516 JLINK_WriteReg(R2, 0x000000FF)  returns 0x00 (0000ms, 0433ms total)
T2CA4 000:516 JLINK_WriteReg(R3, 0x00000000)  returns 0x00 (0000ms, 0433ms total)
T2CA4 000:516 JLINK_WriteReg(R4, 0x00000000)  returns 0x00 (0000ms, 0433ms total)
T2CA4 000:516 JLINK_WriteReg(R5, 0x00000000)  returns 0x00 (0000ms, 0433ms total)
T2CA4 000:516 JLINK_WriteReg(R6, 0x00000000)  returns 0x00 (0000ms, 0433ms total)
T2CA4 000:516 JLINK_WriteReg(R7, 0x00000000)  returns 0x00 (0000ms, 0433ms total)
T2CA4 000:516 JLINK_WriteReg(R8, 0x00000000)  returns 0x00 (0000ms, 0433ms total)
T2CA4 000:516 JLINK_WriteReg(R9, 0x20000414)  returns 0x00 (0000ms, 0433ms total)
T2CA4 000:517 JLINK_WriteReg(R10, 0x00000000)  returns 0x00 (0000ms, 0433ms total)
T2CA4 000:517 JLINK_WriteReg(R11, 0x00000000)  returns 0x00 (0000ms, 0433ms total)
T2CA4 000:517 JLINK_WriteReg(R12, 0x00000000)  returns 0x00 (0000ms, 0433ms total)
T2CA4 000:517 JLINK_WriteReg(R13 (SP), 0x20001000)  returns 0x00 (0000ms, 0433ms total)
T2CA4 000:517 JLINK_WriteReg(R14, 0x20000001)  returns 0x00 (0000ms, 0433ms total)
T2CA4 000:517 JLINK_WriteReg(R15 (PC), 0x20000020)  returns 0x00 (0000ms, 0433ms total)
T2CA4 000:517 JLINK_WriteReg(XPSR, 0x01000000)  returns 0x00 (0000ms, 0433ms total)
T2CA4 000:517 JLINK_WriteReg(MSP, 0x20001000)  returns 0x00 (0000ms, 0433ms total)
T2CA4 000:517 JLINK_WriteReg(PSP, 0x20001000)  returns 0x00 (0000ms, 0433ms total)
T2CA4 000:517 JLINK_WriteReg(CFBP, 0x00000000)  returns 0x00 (0000ms, 0433ms total)
T2CA4 000:517 JLINK_SetBPEx(Addr = 0x20000000, Type = 0xFFFFFFF2)  returns 0x00000003 (0000ms, 0433ms total)
T2CA4 000:517 JLINK_Go() -- CPU_WriteMem(4 bytes @ 0xE0002000) -- CPU_ReadMem(4 bytes @ 0xE0001000) (0004ms, 0437ms total)
T2CA4 000:521 JLINK_IsHalted()  returns FALSE (0001ms, 0438ms total)
T2CA4 000:523 JLINK_IsHalted()  returns FALSE (0001ms, 0438ms total)
T2CA4 000:525 JLINK_IsHalted()  returns FALSE (0001ms, 0438ms total)
T2CA4 000:527 JLINK_IsHalted()  returns FALSE (0001ms, 0438ms total)
T2CA4 000:529 JLINK_IsHalted()  returns FALSE (0001ms, 0438ms total)
T2CA4 000:531 JLINK_IsHalted()  returns FALSE (0001ms, 0438ms total)
T2CA4 000:533 JLINK_IsHalted()  returns FALSE (0001ms, 0438ms total)
T2CA4 000:535 JLINK_IsHalted()  returns FALSE (0001ms, 0438ms total)
T2CA4 000:537 JLINK_IsHalted()  returns FALSE (0000ms, 0437ms total)
T2CA4 000:538 JLINK_IsHalted()  returns TRUE (0002ms, 0439ms total)
T2CA4 000:540 JLINK_ReadReg(R15 (PC))  returns 0x20000000 (0000ms, 0437ms total)
T2CA4 000:540 JLINK_ClrBPEx(BPHandle = 0x00000003)  returns 0x00 (0000ms, 0437ms total)
T2CA4 000:540 JLINK_ReadReg(R0)  returns 0x00000000 (0000ms, 0437ms total)
T2CA4 000:541 JLINK_WriteReg(R0, 0x00000001)  returns 0x00 (0000ms, 0437ms total)
T2CA4 000:541 JLINK_WriteReg(R1, 0x00020000)  returns 0x00 (0000ms, 0437ms total)
T2CA4 000:541 JLINK_WriteReg(R2, 0x000000FF)  returns 0x00 (0000ms, 0437ms total)
T2CA4 000:541 JLINK_WriteReg(R3, 0x00000000)  returns 0x00 (0000ms, 0437ms total)
T2CA4 000:541 JLINK_WriteReg(R4, 0x00000000)  returns 0x00 (0000ms, 0437ms total)
T2CA4 000:541 JLINK_WriteReg(R5, 0x00000000)  returns 0x00 (0000ms, 0437ms total)
T2CA4 000:541 JLINK_WriteReg(R6, 0x00000000)  returns 0x00 (0000ms, 0437ms total)
T2CA4 000:541 JLINK_WriteReg(R7, 0x00000000)  returns 0x00 (0000ms, 0437ms total)
T2CA4 000:541 JLINK_WriteReg(R8, 0x00000000)  returns 0x00 (0000ms, 0437ms total)
T2CA4 000:542 JLINK_WriteReg(R9, 0x20000414)  returns 0x00 (0000ms, 0437ms total)
T2CA4 000:542 JLINK_WriteReg(R10, 0x00000000)  returns 0x00 (0000ms, 0437ms total)
T2CA4 000:542 JLINK_WriteReg(R11, 0x00000000)  returns 0x00 (0000ms, 0437ms total)
T2CA4 000:542 JLINK_WriteReg(R12, 0x00000000)  returns 0x00 (0000ms, 0437ms total)
T2CA4 000:542 JLINK_WriteReg(R13 (SP), 0x20001000)  returns 0x00 (0000ms, 0437ms total)
T2CA4 000:542 JLINK_WriteReg(R14, 0x20000001)  returns 0x00 (0000ms, 0437ms total)
T2CA4 000:542 JLINK_WriteReg(R15 (PC), 0x2000009C)  returns 0x00 (0000ms, 0437ms total)
T2CA4 000:542 JLINK_WriteReg(XPSR, 0x01000000)  returns 0x00 (0000ms, 0437ms total)
T2CA4 000:542 JLINK_WriteReg(MSP, 0x20001000)  returns 0x00 (0000ms, 0437ms total)
T2CA4 000:542 JLINK_WriteReg(PSP, 0x20001000)  returns 0x00 (0000ms, 0437ms total)
T2CA4 000:542 JLINK_WriteReg(CFBP, 0x00000000)  returns 0x00 (0000ms, 0437ms total)
T2CA4 000:542 JLINK_SetBPEx(Addr = 0x20000000, Type = 0xFFFFFFF2)  returns 0x00000004 (0000ms, 0437ms total)
T2CA4 000:542 JLINK_Go() -- CPU_WriteMem(4 bytes @ 0xE0002000) -- CPU_ReadMem(4 bytes @ 0xE0001000) (0004ms, 0441ms total)
T2CA4 000:546 JLINK_IsHalted()  returns TRUE (0003ms, 0444ms total)
T2CA4 000:549 JLINK_ReadReg(R15 (PC))  returns 0x20000000 (0000ms, 0441ms total)
T2CA4 000:549 JLINK_ClrBPEx(BPHandle = 0x00000004)  returns 0x00 (0000ms, 0441ms total)
T2CA4 000:549 JLINK_ReadReg(R0)  returns 0x00000000 (0000ms, 0441ms total)
T2CA4 000:608 JLINK_WriteMem(0x20000000, 0x0418 Bytes, ...) - Data: 00 BE 0A E0 0D 78 2D 06 68 40 08 24 40 00 00 D3 ... -- CPU_WriteMem(1048 bytes @ 0x20000000)  returns 0x418 (0004ms, 0445ms total)
T2CA4 000:613 JLINK_WriteReg(R0, 0x08000000)  returns 0x00 (0000ms, 0445ms total)
T2CA4 000:613 JLINK_WriteReg(R1, 0x00B71B00)  returns 0x00 (0000ms, 0445ms total)
T2CA4 000:613 JLINK_WriteReg(R2, 0x00000002)  returns 0x00 (0000ms, 0445ms total)
T2CA4 000:613 JLINK_WriteReg(R3, 0x00000000)  returns 0x00 (0000ms, 0445ms total)
T2CA4 000:613 JLINK_WriteReg(R4, 0x00000000)  returns 0x00 (0000ms, 0445ms total)
T2CA4 000:613 JLINK_WriteReg(R5, 0x00000000)  returns 0x00 (0000ms, 0445ms total)
T2CA4 000:613 JLINK_WriteReg(R6, 0x00000000)  returns 0x00 (0000ms, 0445ms total)
T2CA4 000:613 JLINK_WriteReg(R7, 0x00000000)  returns 0x00 (0000ms, 0445ms total)
T2CA4 000:613 JLINK_WriteReg(R8, 0x00000000)  returns 0x00 (0000ms, 0445ms total)
T2CA4 000:613 JLINK_WriteReg(R9, 0x20000414)  returns 0x00 (0000ms, 0445ms total)
T2CA4 000:613 JLINK_WriteReg(R10, 0x00000000)  returns 0x00 (0000ms, 0445ms total)
T2CA4 000:613 JLINK_WriteReg(R11, 0x00000000)  returns 0x00 (0000ms, 0445ms total)
T2CA4 000:613 JLINK_WriteReg(R12, 0x00000000)  returns 0x00 (0000ms, 0445ms total)
T2CA4 000:613 JLINK_WriteReg(R13 (SP), 0x20001000)  returns 0x00 (0000ms, 0445ms total)
T2CA4 000:613 JLINK_WriteReg(R14, 0x20000001)  returns 0x00 (0000ms, 0445ms total)
T2CA4 000:613 JLINK_WriteReg(R15 (PC), 0x2000003E)  returns 0x00 (0000ms, 0445ms total)
T2CA4 000:613 JLINK_WriteReg(XPSR, 0x01000000)  returns 0x00 (0000ms, 0445ms total)
T2CA4 000:613 JLINK_WriteReg(MSP, 0x20001000)  returns 0x00 (0000ms, 0445ms total)
T2CA4 000:613 JLINK_WriteReg(PSP, 0x20001000)  returns 0x00 (0000ms, 0445ms total)
T2CA4 000:613 JLINK_WriteReg(CFBP, 0x00000000)  returns 0x00 (0000ms, 0445ms total)
T2CA4 000:613 JLINK_SetBPEx(Addr = 0x20000000, Type = 0xFFFFFFF2)  returns 0x00000005 (0000ms, 0445ms total)
T2CA4 000:613 JLINK_Go() -- CPU_WriteMem(4 bytes @ 0xE0002000) -- CPU_ReadMem(4 bytes @ 0xE0001000) (0003ms, 0448ms total)
T2CA4 000:616 JLINK_IsHalted()  returns TRUE (0003ms, 0451ms total)
T2CA4 000:619 JLINK_ReadReg(R15 (PC))  returns 0x20000000 (0000ms, 0448ms total)
T2CA4 000:619 JLINK_ClrBPEx(BPHandle = 0x00000005)  returns 0x00 (0001ms, 0449ms total)
T2CA4 000:620 JLINK_ReadReg(R0)  returns 0x00000000 (0000ms, 0449ms total)
T2CA4 000:620 JLINK_WriteMem(0x20000418, 0x03E8 Bytes, ...) - Data: 90 09 00 24 2D 00 10 08 6D 19 10 08 A1 22 00 08 ... -- CPU_WriteMem(1000 bytes @ 0x20000418)  returns 0x3E8 (0004ms, 0453ms total)
T2CA4 000:624 JLINK_WriteMem(0x20000800, 0x0018 Bytes, ...) - Data: 48 46 BD E8 F0 8B 13 B5 4F F0 00 00 4F F0 00 01 ... -- CPU_WriteMem(24 bytes @ 0x20000800)  returns 0x18 (0001ms, 0454ms total)
T2CA4 000:625 JLINK_WriteReg(R0, 0x08000000)  returns 0x00 (0000ms, 0454ms total)
T2CA4 000:625 JLINK_WriteReg(R1, 0x00000400)  returns 0x00 (0000ms, 0454ms total)
T2CA4 000:625 JLINK_WriteReg(R2, 0x20000418)  returns 0x00 (0000ms, 0454ms total)
T2CA4 000:625 JLINK_WriteReg(R3, 0x00000000)  returns 0x00 (0000ms, 0454ms total)
T2CA4 000:625 JLINK_WriteReg(R4, 0x00000000)  returns 0x00 (0000ms, 0454ms total)
T2CA4 000:625 JLINK_WriteReg(R5, 0x00000000)  returns 0x00 (0000ms, 0454ms total)
T2CA4 000:625 JLINK_WriteReg(R6, 0x00000000)  returns 0x00 (0000ms, 0454ms total)
T2CA4 000:625 JLINK_WriteReg(R7, 0x00000000)  returns 0x00 (0000ms, 0454ms total)
T2CA4 000:625 JLINK_WriteReg(R8, 0x00000000)  returns 0x00 (0000ms, 0454ms total)
T2CA4 000:625 JLINK_WriteReg(R9, 0x20000414)  returns 0x00 (0000ms, 0454ms total)
T2CA4 000:625 JLINK_WriteReg(R10, 0x00000000)  returns 0x00 (0000ms, 0454ms total)
T2CA4 000:625 JLINK_WriteReg(R11, 0x00000000)  returns 0x00 (0000ms, 0454ms total)
T2CA4 000:625 JLINK_WriteReg(R12, 0x00000000)  returns 0x00 (0000ms, 0454ms total)
T2CA4 000:625 JLINK_WriteReg(R13 (SP), 0x20001000)  returns 0x00 (0000ms, 0454ms total)
T2CA4 000:625 JLINK_WriteReg(R14, 0x20000001)  returns 0x00 (0000ms, 0454ms total)
T2CA4 000:625 JLINK_WriteReg(R15 (PC), 0x2000029A)  returns 0x00 (0000ms, 0454ms total)
T2CA4 000:625 JLINK_WriteReg(XPSR, 0x01000000)  returns 0x00 (0000ms, 0454ms total)
T2CA4 000:625 JLINK_WriteReg(MSP, 0x20001000)  returns 0x00 (0000ms, 0454ms total)
T2CA4 000:625 JLINK_WriteReg(PSP, 0x20001000)  returns 0x00 (0000ms, 0454ms total)
T2CA4 000:625 JLINK_WriteReg(CFBP, 0x00000000)  returns 0x00 (0000ms, 0454ms total)
T2CA4 000:625 JLINK_SetBPEx(Addr = 0x20000000, Type = 0xFFFFFFF2)  returns 0x00000006 (0000ms, 0454ms total)
T2CA4 000:625 JLINK_Go() -- CPU_WriteMem(4 bytes @ 0xE0002000) -- CPU_ReadMem(4 bytes @ 0xE0001000) (0004ms, 0458ms total)
T2CA4 000:629 JLINK_IsHalted()  returns FALSE (0001ms, 0459ms total)
T2CA4 000:637 JLINK_IsHalted()  returns TRUE (0003ms, 0461ms total)
T2CA4 000:640 JLINK_ReadReg(R15 (PC))  returns 0x20000000 (0000ms, 0458ms total)
T2CA4 000:640 JLINK_ClrBPEx(BPHandle = 0x00000006)  returns 0x00 (0000ms, 0458ms total)
T2CA4 000:640 JLINK_ReadReg(R0)  returns 0x00000000 (0000ms, 0458ms total)
T2CA4 000:641 JLINK_WriteMem(0x20000418, 0x03E8 Bytes, ...) - Data: 70 47 00 00 0F B4 1C B5 07 4B 06 AA 7B 44 69 46 ... -- CPU_WriteMem(1000 bytes @ 0x20000418)  returns 0x3E8 (0003ms, 0461ms total)
T2CA4 000:644 JLINK_WriteMem(0x20000800, 0x0018 Bytes, ...) - Data: DF 68 07 FA 0C F7 38 43 90 60 50 68 01 27 8F 40 ... -- CPU_WriteMem(24 bytes @ 0x20000800)  returns 0x18 (0001ms, 0462ms total)
T2CA4 000:645 JLINK_WriteReg(R0, 0x08000400)  returns 0x00 (0000ms, 0462ms total)
T2CA4 000:645 JLINK_WriteReg(R1, 0x00000400)  returns 0x00 (0001ms, 0463ms total)
T2CA4 000:646 JLINK_WriteReg(R2, 0x20000418)  returns 0x00 (0000ms, 0463ms total)
T2CA4 000:646 JLINK_WriteReg(R3, 0x00000000)  returns 0x00 (0000ms, 0463ms total)
T2CA4 000:646 JLINK_WriteReg(R4, 0x00000000)  returns 0x00 (0000ms, 0463ms total)
T2CA4 000:646 JLINK_WriteReg(R5, 0x00000000)  returns 0x00 (0000ms, 0463ms total)
T2CA4 000:646 JLINK_WriteReg(R6, 0x00000000)  returns 0x00 (0000ms, 0463ms total)
T2CA4 000:646 JLINK_WriteReg(R7, 0x00000000)  returns 0x00 (0000ms, 0463ms total)
T2CA4 000:646 JLINK_WriteReg(R8, 0x00000000)  returns 0x00 (0000ms, 0463ms total)
T2CA4 000:646 JLINK_WriteReg(R9, 0x20000414)  returns 0x00 (0000ms, 0463ms total)
T2CA4 000:646 JLINK_WriteReg(R10, 0x00000000)  returns 0x00 (0000ms, 0463ms total)
T2CA4 000:646 JLINK_WriteReg(R11, 0x00000000)  returns 0x00 (0000ms, 0463ms total)
T2CA4 000:646 JLINK_WriteReg(R12, 0x00000000)  returns 0x00 (0000ms, 0463ms total)
T2CA4 000:646 JLINK_WriteReg(R13 (SP), 0x20001000)  returns 0x00 (0000ms, 0463ms total)
T2CA4 000:646 JLINK_WriteReg(R14, 0x20000001)  returns 0x00 (0000ms, 0463ms total)
T2CA4 000:646 JLINK_WriteReg(R15 (PC), 0x2000029A)  returns 0x00 (0000ms, 0463ms total)
T2CA4 000:646 JLINK_WriteReg(XPSR, 0x01000000)  returns 0x00 (0000ms, 0463ms total)
T2CA4 000:646 JLINK_WriteReg(MSP, 0x20001000)  returns 0x00 (0000ms, 0463ms total)
T2CA4 000:646 JLINK_WriteReg(PSP, 0x20001000)  returns 0x00 (0000ms, 0463ms total)
T2CA4 000:646 JLINK_WriteReg(CFBP, 0x00000000)  returns 0x00 (0000ms, 0463ms total)
T2CA4 000:646 JLINK_SetBPEx(Addr = 0x20000000, Type = 0xFFFFFFF2)  returns 0x00000007 (0000ms, 0463ms total)
T2CA4 000:646 JLINK_Go() -- CPU_WriteMem(4 bytes @ 0xE0002000) -- CPU_ReadMem(4 bytes @ 0xE0001000) (0003ms, 0466ms total)
T2CA4 000:649 JLINK_IsHalted()  returns FALSE (0001ms, 0467ms total)
T2CA4 000:653 JLINK_IsHalted()  returns FALSE (0001ms, 0467ms total)
T2CA4 000:655 JLINK_IsHalted()  returns FALSE (0001ms, 0467ms total)
T2CA4 000:657 JLINK_IsHalted()  returns FALSE (0001ms, 0467ms total)
T2CA4 000:659 JLINK_IsHalted()  returns TRUE (0003ms, 0469ms total)
T2CA4 000:662 JLINK_ReadReg(R15 (PC))  returns 0x20000000 (0000ms, 0466ms total)
T2CA4 000:662 JLINK_ClrBPEx(BPHandle = 0x00000007)  returns 0x00 (0000ms, 0466ms total)
T2CA4 000:662 JLINK_ReadReg(R0)  returns 0x00000000 (0000ms, 0466ms total)
T2CA4 000:664 JLINK_WriteMem(0x20000418, 0x03E8 Bytes, ...) - Data: 8F 40 38 43 50 60 D0 68 4F EA 41 0C 03 27 07 FA ... -- CPU_WriteMem(1000 bytes @ 0x20000418)  returns 0x3E8 (0003ms, 0469ms total)
T2CA4 000:667 JLINK_WriteMem(0x20000800, 0x0018 Bytes, ...) - Data: 21 1A 22 EE 01 1A F0 EE 41 0A 3F E0 3D 4D B5 FB ... -- CPU_WriteMem(24 bytes @ 0x20000800)  returns 0x18 (0001ms, 0470ms total)
T2CA4 000:668 JLINK_WriteReg(R0, 0x08000800)  returns 0x00 (0000ms, 0470ms total)
T2CA4 000:668 JLINK_WriteReg(R1, 0x00000400)  returns 0x00 (0000ms, 0470ms total)
T2CA4 000:668 JLINK_WriteReg(R2, 0x20000418)  returns 0x00 (0001ms, 0471ms total)
T2CA4 000:669 JLINK_WriteReg(R3, 0x00000000)  returns 0x00 (0000ms, 0471ms total)
T2CA4 000:669 JLINK_WriteReg(R4, 0x00000000)  returns 0x00 (0000ms, 0471ms total)
T2CA4 000:669 JLINK_WriteReg(R5, 0x00000000)  returns 0x00 (0000ms, 0471ms total)
T2CA4 000:669 JLINK_WriteReg(R6, 0x00000000)  returns 0x00 (0000ms, 0471ms total)
T2CA4 000:669 JLINK_WriteReg(R7, 0x00000000)  returns 0x00 (0000ms, 0471ms total)
T2CA4 000:669 JLINK_WriteReg(R8, 0x00000000)  returns 0x00 (0000ms, 0471ms total)
T2CA4 000:669 JLINK_WriteReg(R9, 0x20000414)  returns 0x00 (0000ms, 0471ms total)
T2CA4 000:669 JLINK_WriteReg(R10, 0x00000000)  returns 0x00 (0000ms, 0471ms total)
T2CA4 000:669 JLINK_WriteReg(R11, 0x00000000)  returns 0x00 (0000ms, 0471ms total)
T2CA4 000:669 JLINK_WriteReg(R12, 0x00000000)  returns 0x00 (0000ms, 0471ms total)
T2CA4 000:669 JLINK_WriteReg(R13 (SP), 0x20001000)  returns 0x00 (0000ms, 0471ms total)
T2CA4 000:669 JLINK_WriteReg(R14, 0x20000001)  returns 0x00 (0000ms, 0471ms total)
T2CA4 000:669 JLINK_WriteReg(R15 (PC), 0x2000029A)  returns 0x00 (0000ms, 0471ms total)
T2CA4 000:669 JLINK_WriteReg(XPSR, 0x01000000)  returns 0x00 (0000ms, 0471ms total)
T2CA4 000:669 JLINK_WriteReg(MSP, 0x20001000)  returns 0x00 (0000ms, 0471ms total)
T2CA4 000:669 JLINK_WriteReg(PSP, 0x20001000)  returns 0x00 (0000ms, 0471ms total)
T2CA4 000:669 JLINK_WriteReg(CFBP, 0x00000000)  returns 0x00 (0000ms, 0471ms total)
T2CA4 000:669 JLINK_SetBPEx(Addr = 0x20000000, Type = 0xFFFFFFF2)  returns 0x00000008 (0000ms, 0471ms total)
T2CA4 000:669 JLINK_Go() -- CPU_WriteMem(4 bytes @ 0xE0002000) -- CPU_ReadMem(4 bytes @ 0xE0001000) (0003ms, 0474ms total)
T2CA4 000:672 JLINK_IsHalted()  returns FALSE (0001ms, 0475ms total)
T2CA4 000:676 JLINK_IsHalted()  returns FALSE (0001ms, 0475ms total)
T2CA4 000:680 JLINK_IsHalted()  returns FALSE (0001ms, 0475ms total)
T2CA4 000:682 JLINK_IsHalted()  returns TRUE (0003ms, 0477ms total)
T2CA4 000:685 JLINK_ReadReg(R15 (PC))  returns 0x20000000 (0000ms, 0474ms total)
T2CA4 000:685 JLINK_ClrBPEx(BPHandle = 0x00000008)  returns 0x00 (0000ms, 0474ms total)
T2CA4 000:685 JLINK_ReadReg(R0)  returns 0x00000000 (0000ms, 0474ms total)
T2CA4 000:685 JLINK_WriteMem(0x20000418, 0x03E8 Bytes, ...) - Data: 41 1A 9F ED 38 1A 80 EE 01 2A 34 4D 10 35 2D 68 ... -- CPU_WriteMem(1000 bytes @ 0x20000418)  returns 0x3E8 (0004ms, 0478ms total)
T2CA4 000:689 JLINK_WriteMem(0x20000800, 0x0018 Bytes, ...) - Data: 24 00 00 F1 C1 FC 05 46 03 E0 02 E0 01 E0 01 25 ... -- CPU_WriteMem(24 bytes @ 0x20000800)  returns 0x18 (0001ms, 0479ms total)
T2CA4 000:690 JLINK_WriteReg(R0, 0x08000C00)  returns 0x00 (0000ms, 0479ms total)
T2CA4 000:690 JLINK_WriteReg(R1, 0x00000400)  returns 0x00 (0000ms, 0479ms total)
T2CA4 000:690 JLINK_WriteReg(R2, 0x20000418)  returns 0x00 (0000ms, 0479ms total)
T2CA4 000:690 JLINK_WriteReg(R3, 0x00000000)  returns 0x00 (0000ms, 0479ms total)
T2CA4 000:690 JLINK_WriteReg(R4, 0x00000000)  returns 0x00 (0000ms, 0479ms total)
T2CA4 000:690 JLINK_WriteReg(R5, 0x00000000)  returns 0x00 (0000ms, 0479ms total)
T2CA4 000:690 JLINK_WriteReg(R6, 0x00000000)  returns 0x00 (0000ms, 0479ms total)
T2CA4 000:690 JLINK_WriteReg(R7, 0x00000000)  returns 0x00 (0000ms, 0479ms total)
T2CA4 000:690 JLINK_WriteReg(R8, 0x00000000)  returns 0x00 (0000ms, 0479ms total)
T2CA4 000:690 JLINK_WriteReg(R9, 0x20000414)  returns 0x00 (0000ms, 0479ms total)
T2CA4 000:690 JLINK_WriteReg(R10, 0x00000000)  returns 0x00 (0000ms, 0479ms total)
T2CA4 000:690 JLINK_WriteReg(R11, 0x00000000)  returns 0x00 (0000ms, 0479ms total)
T2CA4 000:690 JLINK_WriteReg(R12, 0x00000000)  returns 0x00 (0000ms, 0479ms total)
T2CA4 000:690 JLINK_WriteReg(R13 (SP), 0x20001000)  returns 0x00 (0001ms, 0480ms total)
T2CA4 000:691 JLINK_WriteReg(R14, 0x20000001)  returns 0x00 (0000ms, 0480ms total)
T2CA4 000:691 JLINK_WriteReg(R15 (PC), 0x2000029A)  returns 0x00 (0000ms, 0480ms total)
T2CA4 000:691 JLINK_WriteReg(XPSR, 0x01000000)  returns 0x00 (0000ms, 0480ms total)
T2CA4 000:691 JLINK_WriteReg(MSP, 0x20001000)  returns 0x00 (0000ms, 0480ms total)
T2CA4 000:691 JLINK_WriteReg(PSP, 0x20001000)  returns 0x00 (0000ms, 0480ms total)
T2CA4 000:691 JLINK_WriteReg(CFBP, 0x00000000)  returns 0x00 (0000ms, 0480ms total)
T2CA4 000:691 JLINK_SetBPEx(Addr = 0x20000000, Type = 0xFFFFFFF2)  returns 0x00000009 (0000ms, 0480ms total)
T2CA4 000:691 JLINK_Go() -- CPU_WriteMem(4 bytes @ 0xE0002000) -- CPU_ReadMem(4 bytes @ 0xE0001000) (0003ms, 0483ms total)
T2CA4 000:694 JLINK_IsHalted()  returns FALSE (0001ms, 0484ms total)
T2CA4 000:696 JLINK_IsHalted()  returns FALSE (0000ms, 0483ms total)
T2CA4 000:697 JLINK_IsHalted()  returns FALSE (0000ms, 0483ms total)
T2CA4 000:698 JLINK_IsHalted()  returns FALSE (0000ms, 0483ms total)
T2CA4 000:699 JLINK_IsHalted()  returns FALSE (0000ms, 0483ms total)
T2CA4 000:700 JLINK_IsHalted()  returns FALSE (0000ms, 0483ms total)
T2CA4 000:701 JLINK_IsHalted()  returns FALSE (0000ms, 0483ms total)
T2CA4 000:702 JLINK_IsHalted()  returns FALSE (0000ms, 0483ms total)
T2CA4 000:703 JLINK_IsHalted()  returns TRUE (0002ms, 0485ms total)
T2CA4 000:705 JLINK_ReadReg(R15 (PC))  returns 0x20000000 (0000ms, 0483ms total)
T2CA4 000:705 JLINK_ClrBPEx(BPHandle = 0x00000009)  returns 0x00 (0000ms, 0483ms total)
T2CA4 000:705 JLINK_ReadReg(R0)  returns 0x00000000 (0000ms, 0483ms total)
T2CA4 000:706 JLINK_WriteMem(0x20000418, 0x03E8 Bytes, ...) - Data: 24 30 00 68 20 F4 E0 40 E1 6D 08 43 3D 49 24 31 ... -- CPU_WriteMem(1000 bytes @ 0x20000418)  returns 0x3E8 (0004ms, 0487ms total)
T2CA4 000:710 JLINK_WriteMem(0x20000800, 0x0018 Bytes, ...) - Data: 20 F0 07 00 D4 F8 90 10 08 43 48 49 2C 31 08 60 ... -- CPU_WriteMem(24 bytes @ 0x20000800)  returns 0x18 (0001ms, 0488ms total)
T2CA4 000:711 JLINK_WriteReg(R0, 0x08001000)  returns 0x00 (0000ms, 0488ms total)
T2CA4 000:711 JLINK_WriteReg(R1, 0x00000400)  returns 0x00 (0000ms, 0488ms total)
T2CA4 000:711 JLINK_WriteReg(R2, 0x20000418)  returns 0x00 (0000ms, 0488ms total)
T2CA4 000:711 JLINK_WriteReg(R3, 0x00000000)  returns 0x00 (0000ms, 0488ms total)
T2CA4 000:711 JLINK_WriteReg(R4, 0x00000000)  returns 0x00 (0000ms, 0488ms total)
T2CA4 000:711 JLINK_WriteReg(R5, 0x00000000)  returns 0x00 (0000ms, 0488ms total)
T2CA4 000:711 JLINK_WriteReg(R6, 0x00000000)  returns 0x00 (0000ms, 0488ms total)
T2CA4 000:711 JLINK_WriteReg(R7, 0x00000000)  returns 0x00 (0000ms, 0488ms total)
T2CA4 000:711 JLINK_WriteReg(R8, 0x00000000)  returns 0x00 (0000ms, 0488ms total)
T2CA4 000:711 JLINK_WriteReg(R9, 0x20000414)  returns 0x00 (0000ms, 0488ms total)
T2CA4 000:711 JLINK_WriteReg(R10, 0x00000000)  returns 0x00 (0000ms, 0488ms total)
T2CA4 000:711 JLINK_WriteReg(R11, 0x00000000)  returns 0x00 (0000ms, 0488ms total)
T2CA4 000:711 JLINK_WriteReg(R12, 0x00000000)  returns 0x00 (0000ms, 0488ms total)
T2CA4 000:711 JLINK_WriteReg(R13 (SP), 0x20001000)  returns 0x00 (0000ms, 0488ms total)
T2CA4 000:711 JLINK_WriteReg(R14, 0x20000001)  returns 0x00 (0000ms, 0488ms total)
T2CA4 000:711 JLINK_WriteReg(R15 (PC), 0x2000029A)  returns 0x00 (0000ms, 0488ms total)
T2CA4 000:711 JLINK_WriteReg(XPSR, 0x01000000)  returns 0x00 (0000ms, 0488ms total)
T2CA4 000:711 JLINK_WriteReg(MSP, 0x20001000)  returns 0x00 (0000ms, 0488ms total)
T2CA4 000:711 JLINK_WriteReg(PSP, 0x20001000)  returns 0x00 (0000ms, 0488ms total)
T2CA4 000:711 JLINK_WriteReg(CFBP, 0x00000000)  returns 0x00 (0000ms, 0488ms total)
T2CA4 000:711 JLINK_SetBPEx(Addr = 0x20000000, Type = 0xFFFFFFF2)  returns 0x0000000A (0000ms, 0488ms total)
T2CA4 000:711 JLINK_Go() -- CPU_WriteMem(4 bytes @ 0xE0002000) -- CPU_ReadMem(4 bytes @ 0xE0001000) (0004ms, 0492ms total)
T2CA4 000:715 JLINK_IsHalted()  returns FALSE (0001ms, 0493ms total)
T2CA4 000:717 JLINK_IsHalted()  returns FALSE (0001ms, 0493ms total)
T2CA4 000:719 JLINK_IsHalted()  returns FALSE (0001ms, 0493ms total)
T2CA4 000:721 JLINK_IsHalted()  returns FALSE (0001ms, 0493ms total)
T2CA4 000:723 JLINK_IsHalted()  returns TRUE (0003ms, 0495ms total)
T2CA4 000:726 JLINK_ReadReg(R15 (PC))  returns 0x20000000 (0000ms, 0492ms total)
T2CA4 000:726 JLINK_ClrBPEx(BPHandle = 0x0000000A)  returns 0x00 (0000ms, 0492ms total)
T2CA4 000:726 JLINK_ReadReg(R0)  returns 0x00000000 (0000ms, 0492ms total)
T2CA4 000:726 JLINK_WriteMem(0x20000418, 0x03E8 Bytes, ...) - Data: 20 00 20 28 36 D1 D4 F8 8C 00 B0 F1 40 5F 1D D0 ... -- CPU_WriteMem(1000 bytes @ 0x20000418)  returns 0x3E8 (0004ms, 0496ms total)
T2CA4 000:730 JLINK_WriteMem(0x20000800, 0x0018 Bytes, ...) - Data: 00 68 D4 F8 B8 10 08 43 0C 49 48 39 08 60 00 BF ... -- CPU_WriteMem(24 bytes @ 0x20000800)  returns 0x18 (0001ms, 0497ms total)
T2CA4 000:731 JLINK_WriteReg(R0, 0x08001400)  returns 0x00 (0000ms, 0497ms total)
T2CA4 000:731 JLINK_WriteReg(R1, 0x00000400)  returns 0x00 (0000ms, 0497ms total)
T2CA4 000:731 JLINK_WriteReg(R2, 0x20000418)  returns 0x00 (0000ms, 0497ms total)
T2CA4 000:731 JLINK_WriteReg(R3, 0x00000000)  returns 0x00 (0000ms, 0497ms total)
T2CA4 000:731 JLINK_WriteReg(R4, 0x00000000)  returns 0x00 (0000ms, 0497ms total)
T2CA4 000:731 JLINK_WriteReg(R5, 0x00000000)  returns 0x00 (0000ms, 0497ms total)
T2CA4 000:731 JLINK_WriteReg(R6, 0x00000000)  returns 0x00 (0000ms, 0497ms total)
T2CA4 000:731 JLINK_WriteReg(R7, 0x00000000)  returns 0x00 (0000ms, 0497ms total)
T2CA4 000:731 JLINK_WriteReg(R8, 0x00000000)  returns 0x00 (0000ms, 0497ms total)
T2CA4 000:731 JLINK_WriteReg(R9, 0x20000414)  returns 0x00 (0000ms, 0497ms total)
T2CA4 000:731 JLINK_WriteReg(R10, 0x00000000)  returns 0x00 (0000ms, 0497ms total)
T2CA4 000:731 JLINK_WriteReg(R11, 0x00000000)  returns 0x00 (0000ms, 0497ms total)
T2CA4 000:731 JLINK_WriteReg(R12, 0x00000000)  returns 0x00 (0000ms, 0497ms total)
T2CA4 000:731 JLINK_WriteReg(R13 (SP), 0x20001000)  returns 0x00 (0001ms, 0498ms total)
T2CA4 000:732 JLINK_WriteReg(R14, 0x20000001)  returns 0x00 (0000ms, 0498ms total)
T2CA4 000:732 JLINK_WriteReg(R15 (PC), 0x2000029A)  returns 0x00 (0000ms, 0498ms total)
T2CA4 000:732 JLINK_WriteReg(XPSR, 0x01000000)  returns 0x00 (0000ms, 0498ms total)
T2CA4 000:732 JLINK_WriteReg(MSP, 0x20001000)  returns 0x00 (0000ms, 0498ms total)
T2CA4 000:732 JLINK_WriteReg(PSP, 0x20001000)  returns 0x00 (0000ms, 0498ms total)
T2CA4 000:732 JLINK_WriteReg(CFBP, 0x00000000)  returns 0x00 (0000ms, 0498ms total)
T2CA4 000:732 JLINK_SetBPEx(Addr = 0x20000000, Type = 0xFFFFFFF2)  returns 0x0000000B (0000ms, 0498ms total)
T2CA4 000:732 JLINK_Go() -- CPU_WriteMem(4 bytes @ 0xE0002000) -- CPU_ReadMem(4 bytes @ 0xE0001000) (0003ms, 0501ms total)
T2CA4 000:735 JLINK_IsHalted()  returns FALSE (0001ms, 0502ms total)
T2CA4 000:739 JLINK_IsHalted()  returns FALSE (0001ms, 0502ms total)
T2CA4 000:741 JLINK_IsHalted()  returns FALSE (0001ms, 0502ms total)
T2CA4 000:743 JLINK_IsHalted()  returns FALSE (0001ms, 0502ms total)
T2CA4 000:745 JLINK_IsHalted()  returns TRUE (0003ms, 0504ms total)
T2CA4 000:748 JLINK_ReadReg(R15 (PC))  returns 0x20000000 (0000ms, 0501ms total)
T2CA4 000:748 JLINK_ClrBPEx(BPHandle = 0x0000000B)  returns 0x00 (0000ms, 0501ms total)
T2CA4 000:748 JLINK_ReadReg(R0)  returns 0x00000000 (0000ms, 0501ms total)
T2CA4 000:748 JLINK_WriteMem(0x20000418, 0x03E8 Bytes, ...) - Data: 00 4F 09 D1 07 48 0C 38 00 68 20 F0 40 50 21 6D ... -- CPU_WriteMem(1000 bytes @ 0x20000418)  returns 0x3E8 (0004ms, 0505ms total)
T2CA4 000:752 JLINK_WriteMem(0x20000800, 0x0018 Bytes, ...) - Data: 64 30 00 68 40 F0 01 00 24 49 64 31 08 60 FE F0 ... -- CPU_WriteMem(24 bytes @ 0x20000800)  returns 0x18 (0001ms, 0506ms total)
T2CA4 000:753 JLINK_WriteReg(R0, 0x08001800)  returns 0x00 (0000ms, 0506ms total)
T2CA4 000:753 JLINK_WriteReg(R1, 0x00000400)  returns 0x00 (0000ms, 0506ms total)
T2CA4 000:753 JLINK_WriteReg(R2, 0x20000418)  returns 0x00 (0000ms, 0506ms total)
T2CA4 000:753 JLINK_WriteReg(R3, 0x00000000)  returns 0x00 (0000ms, 0506ms total)
T2CA4 000:753 JLINK_WriteReg(R4, 0x00000000)  returns 0x00 (0000ms, 0506ms total)
T2CA4 000:753 JLINK_WriteReg(R5, 0x00000000)  returns 0x00 (0000ms, 0506ms total)
T2CA4 000:753 JLINK_WriteReg(R6, 0x00000000)  returns 0x00 (0000ms, 0506ms total)
T2CA4 000:753 JLINK_WriteReg(R7, 0x00000000)  returns 0x00 (0000ms, 0506ms total)
T2CA4 000:753 JLINK_WriteReg(R8, 0x00000000)  returns 0x00 (0000ms, 0506ms total)
T2CA4 000:753 JLINK_WriteReg(R9, 0x20000414)  returns 0x00 (0000ms, 0506ms total)
T2CA4 000:754 JLINK_WriteReg(R10, 0x00000000)  returns 0x00 (0000ms, 0506ms total)
T2CA4 000:754 JLINK_WriteReg(R11, 0x00000000)  returns 0x00 (0000ms, 0506ms total)
T2CA4 000:754 JLINK_WriteReg(R12, 0x00000000)  returns 0x00 (0000ms, 0506ms total)
T2CA4 000:754 JLINK_WriteReg(R13 (SP), 0x20001000)  returns 0x00 (0000ms, 0506ms total)
T2CA4 000:754 JLINK_WriteReg(R14, 0x20000001)  returns 0x00 (0000ms, 0506ms total)
T2CA4 000:754 JLINK_WriteReg(R15 (PC), 0x2000029A)  returns 0x00 (0000ms, 0506ms total)
T2CA4 000:754 JLINK_WriteReg(XPSR, 0x01000000)  returns 0x00 (0000ms, 0506ms total)
T2CA4 000:754 JLINK_WriteReg(MSP, 0x20001000)  returns 0x00 (0000ms, 0506ms total)
T2CA4 000:754 JLINK_WriteReg(PSP, 0x20001000)  returns 0x00 (0000ms, 0506ms total)
T2CA4 000:754 JLINK_WriteReg(CFBP, 0x00000000)  returns 0x00 (0000ms, 0506ms total)
T2CA4 000:754 JLINK_SetBPEx(Addr = 0x20000000, Type = 0xFFFFFFF2)  returns 0x0000000C (0000ms, 0506ms total)
T2CA4 000:754 JLINK_Go() -- CPU_WriteMem(4 bytes @ 0xE0002000) -- CPU_ReadMem(4 bytes @ 0xE0001000) (0003ms, 0509ms total)
T2CA4 000:757 JLINK_IsHalted()  returns FALSE (0001ms, 0510ms total)
T2CA4 000:761 JLINK_IsHalted()  returns FALSE (0001ms, 0510ms total)
T2CA4 000:763 JLINK_IsHalted()  returns FALSE (0001ms, 0510ms total)
T2CA4 000:765 JLINK_IsHalted()  returns FALSE (0001ms, 0510ms total)
T2CA4 000:767 JLINK_IsHalted()  returns TRUE (0003ms, 0512ms total)
T2CA4 000:770 JLINK_ReadReg(R15 (PC))  returns 0x20000000 (0000ms, 0509ms total)
T2CA4 000:770 JLINK_ClrBPEx(BPHandle = 0x0000000C)  returns 0x00 (0000ms, 0509ms total)
T2CA4 000:770 JLINK_ReadReg(R0)  returns 0x00000000 (0000ms, 0509ms total)
T2CA4 000:772 JLINK_WriteMem(0x20000418, 0x03E8 Bytes, ...) - Data: 7F FC 40 1B 02 28 01 D9 03 20 65 E6 1D 48 64 30 ... -- CPU_WriteMem(1000 bytes @ 0x20000418)  returns 0x3E8 (0004ms, 0513ms total)
T2CA4 000:776 JLINK_WriteMem(0x20000800, 0x0018 Bytes, ...) - Data: 00 68 40 F0 04 00 35 49 14 39 08 60 08 46 00 68 ... -- CPU_WriteMem(24 bytes @ 0x20000800)  returns 0x18 (0001ms, 0514ms total)
T2CA4 000:777 JLINK_WriteReg(R0, 0x08001C00)  returns 0x00 (0000ms, 0514ms total)
T2CA4 000:777 JLINK_WriteReg(R1, 0x00000400)  returns 0x00 (0000ms, 0514ms total)
T2CA4 000:777 JLINK_WriteReg(R2, 0x20000418)  returns 0x00 (0000ms, 0514ms total)
T2CA4 000:777 JLINK_WriteReg(R3, 0x00000000)  returns 0x00 (0000ms, 0514ms total)
T2CA4 000:777 JLINK_WriteReg(R4, 0x00000000)  returns 0x00 (0000ms, 0514ms total)
T2CA4 000:777 JLINK_WriteReg(R5, 0x00000000)  returns 0x00 (0000ms, 0514ms total)
T2CA4 000:777 JLINK_WriteReg(R6, 0x00000000)  returns 0x00 (0000ms, 0514ms total)
T2CA4 000:777 JLINK_WriteReg(R7, 0x00000000)  returns 0x00 (0000ms, 0514ms total)
T2CA4 000:777 JLINK_WriteReg(R8, 0x00000000)  returns 0x00 (0000ms, 0514ms total)
T2CA4 000:777 JLINK_WriteReg(R9, 0x20000414)  returns 0x00 (0000ms, 0514ms total)
T2CA4 000:777 JLINK_WriteReg(R10, 0x00000000)  returns 0x00 (0000ms, 0514ms total)
T2CA4 000:777 JLINK_WriteReg(R11, 0x00000000)  returns 0x00 (0000ms, 0514ms total)
T2CA4 000:777 JLINK_WriteReg(R12, 0x00000000)  returns 0x00 (0000ms, 0514ms total)
T2CA4 000:777 JLINK_WriteReg(R13 (SP), 0x20001000)  returns 0x00 (0000ms, 0514ms total)
T2CA4 000:777 JLINK_WriteReg(R14, 0x20000001)  returns 0x00 (0000ms, 0514ms total)
T2CA4 000:777 JLINK_WriteReg(R15 (PC), 0x2000029A)  returns 0x00 (0000ms, 0514ms total)
T2CA4 000:777 JLINK_WriteReg(XPSR, 0x01000000)  returns 0x00 (0000ms, 0514ms total)
T2CA4 000:777 JLINK_WriteReg(MSP, 0x20001000)  returns 0x00 (0000ms, 0514ms total)
T2CA4 000:777 JLINK_WriteReg(PSP, 0x20001000)  returns 0x00 (0000ms, 0514ms total)
T2CA4 000:777 JLINK_WriteReg(CFBP, 0x00000000)  returns 0x00 (0000ms, 0514ms total)
T2CA4 000:777 JLINK_SetBPEx(Addr = 0x20000000, Type = 0xFFFFFFF2)  returns 0x0000000D (0000ms, 0514ms total)
T2CA4 000:777 JLINK_Go() -- CPU_WriteMem(4 bytes @ 0xE0002000) -- CPU_ReadMem(4 bytes @ 0xE0001000) (0004ms, 0518ms total)
T2CA4 000:781 JLINK_IsHalted()  returns FALSE (0001ms, 0519ms total)
T2CA4 000:786 JLINK_IsHalted()  returns FALSE (0001ms, 0519ms total)
T2CA4 000:788 JLINK_IsHalted()  returns FALSE (0000ms, 0518ms total)
T2CA4 000:791 JLINK_IsHalted()  returns TRUE (0003ms, 0521ms total)
T2CA4 000:794 JLINK_ReadReg(R15 (PC))  returns 0x20000000 (0000ms, 0518ms total)
T2CA4 000:794 JLINK_ClrBPEx(BPHandle = 0x0000000D)  returns 0x00 (0000ms, 0518ms total)
T2CA4 000:794 JLINK_ReadReg(R0)  returns 0x00000000 (0000ms, 0518ms total)
T2CA4 000:794 JLINK_WriteMem(0x20000418, 0x03E8 Bytes, ...) - Data: 00 BF 00 BF 08 46 00 68 40 F0 08 00 08 60 08 46 ... -- CPU_WriteMem(1000 bytes @ 0x20000418)  returns 0x3E8 (0004ms, 0522ms total)
T2CA4 000:798 JLINK_WriteMem(0x20000800, 0x0018 Bytes, ...) - Data: 2B 20 88 81 4F F4 48 70 08 80 4F F4 F0 70 48 80 ... -- CPU_WriteMem(24 bytes @ 0x20000800)  returns 0x18 (0001ms, 0523ms total)
T2CA4 000:799 JLINK_WriteReg(R0, 0x08002000)  returns 0x00 (0000ms, 0523ms total)
T2CA4 000:799 JLINK_WriteReg(R1, 0x00000400)  returns 0x00 (0000ms, 0523ms total)
T2CA4 000:799 JLINK_WriteReg(R2, 0x20000418)  returns 0x00 (0000ms, 0523ms total)
T2CA4 000:799 JLINK_WriteReg(R3, 0x00000000)  returns 0x00 (0000ms, 0523ms total)
T2CA4 000:799 JLINK_WriteReg(R4, 0x00000000)  returns 0x00 (0000ms, 0523ms total)
T2CA4 000:799 JLINK_WriteReg(R5, 0x00000000)  returns 0x00 (0000ms, 0523ms total)
T2CA4 000:799 JLINK_WriteReg(R6, 0x00000000)  returns 0x00 (0000ms, 0523ms total)
T2CA4 000:799 JLINK_WriteReg(R7, 0x00000000)  returns 0x00 (0000ms, 0523ms total)
T2CA4 000:799 JLINK_WriteReg(R8, 0x00000000)  returns 0x00 (0000ms, 0523ms total)
T2CA4 000:799 JLINK_WriteReg(R9, 0x20000414)  returns 0x00 (0000ms, 0523ms total)
T2CA4 000:799 JLINK_WriteReg(R10, 0x00000000)  returns 0x00 (0000ms, 0523ms total)
T2CA4 000:799 JLINK_WriteReg(R11, 0x00000000)  returns 0x00 (0000ms, 0523ms total)
T2CA4 000:799 JLINK_WriteReg(R12, 0x00000000)  returns 0x00 (0000ms, 0523ms total)
T2CA4 000:799 JLINK_WriteReg(R13 (SP), 0x20001000)  returns 0x00 (0000ms, 0523ms total)
T2CA4 000:799 JLINK_WriteReg(R14, 0x20000001)  returns 0x00 (0001ms, 0524ms total)
T2CA4 000:800 JLINK_WriteReg(R15 (PC), 0x2000029A)  returns 0x00 (0000ms, 0524ms total)
T2CA4 000:800 JLINK_WriteReg(XPSR, 0x01000000)  returns 0x00 (0000ms, 0524ms total)
T2CA4 000:800 JLINK_WriteReg(MSP, 0x20001000)  returns 0x00 (0000ms, 0524ms total)
T2CA4 000:800 JLINK_WriteReg(PSP, 0x20001000)  returns 0x00 (0000ms, 0524ms total)
T2CA4 000:800 JLINK_WriteReg(CFBP, 0x00000000)  returns 0x00 (0000ms, 0524ms total)
T2CA4 000:800 JLINK_SetBPEx(Addr = 0x20000000, Type = 0xFFFFFFF2)  returns 0x0000000E (0000ms, 0524ms total)
T2CA4 000:800 JLINK_Go() -- CPU_WriteMem(4 bytes @ 0xE0002000) -- CPU_ReadMem(4 bytes @ 0xE0001000) (0003ms, 0527ms total)
T2CA4 000:803 JLINK_IsHalted()  returns FALSE (0001ms, 0528ms total)
T2CA4 000:805 JLINK_IsHalted()  returns FALSE (0000ms, 0527ms total)
T2CA4 000:806 JLINK_IsHalted()  returns FALSE (0000ms, 0527ms total)
T2CA4 000:807 JLINK_IsHalted()  returns FALSE (0000ms, 0527ms total)
T2CA4 000:808 JLINK_IsHalted()  returns FALSE (0000ms, 0527ms total)
T2CA4 000:809 JLINK_IsHalted()  returns FALSE (0000ms, 0527ms total)
T2CA4 000:810 JLINK_IsHalted()  returns FALSE (0000ms, 0527ms total)
T2CA4 000:811 JLINK_IsHalted()  returns FALSE (0000ms, 0527ms total)
T2CA4 000:812 JLINK_IsHalted()  returns TRUE (0002ms, 0529ms total)
T2CA4 000:814 JLINK_ReadReg(R15 (PC))  returns 0x20000000 (0000ms, 0527ms total)
T2CA4 000:814 JLINK_ClrBPEx(BPHandle = 0x0000000E)  returns 0x00 (0000ms, 0527ms total)
T2CA4 000:814 JLINK_ReadReg(R0)  returns 0x00000000 (0000ms, 0527ms total)
T2CA4 000:815 JLINK_WriteMem(0x20000418, 0x03E8 Bytes, ...) - Data: 88 42 06 D1 4F F4 F0 70 04 49 08 80 4F F4 A0 70 ... -- CPU_WriteMem(1000 bytes @ 0x20000418)  returns 0x3E8 (0004ms, 0531ms total)
T2CA4 000:819 JLINK_WriteMem(0x20000800, 0x0018 Bytes, ...) - Data: C1 20 02 F0 DD FA 01 20 FF F0 0C F8 C5 20 02 F0 ... -- CPU_WriteMem(24 bytes @ 0x20000800)  returns 0x18 (0001ms, 0532ms total)
T2CA4 000:820 JLINK_WriteReg(R0, 0x08002400)  returns 0x00 (0000ms, 0532ms total)
